! 2-port S-parameter file Version 2.0 by Elsie 19/04/2023 08:44:34
[Version] 2.0
# MHz S DB R 50
[Number of Ports] 2
[Two-Port Data Order] 21_12
[Number of Frequencies] 1001
! Fstart: 1  Fstop: 60
[Reference]  50 50
! Freq:       S11 mag:      S11 angle:    S21 mag:      S21 angle:    S12 mag:      S12 angle:    S22 mag:      S22 angle:
[Network data]
1             -.1007041     -34.97561     -30.08692     -130.0352     -30.08692     -130.0352     -.1007041     -34.97561     
1.059         -.1295369     -39.03751     -27.37879     -134.3007     -27.37879     -134.3007     -.1295369     -39.03751     
1.118         -.17005       -43.73429     -24.62107     -139.2642     -24.62107     -139.2642     -.17005       -43.73429     
1.177         -.229725      -49.26068     -21.79141     -145.1327     -21.79141     -145.1327     -.229725      -49.26068     
1.236         -.3228026     -55.89739     -18.86927     -152.2058     -18.86927     -152.2058     -.3228026     -55.89739     
1.295         -.4780084     -64.05743     -15.84082     -160.9252     -15.84082     -160.9252     -.4780084     -64.05743     
1.354         -.7563807     -74.34747     -12.71235     -171.9427     -12.71235     -171.9427     -.7563807     -74.34747     
1.413         -1.291541     -87.60133     -9.543236     173.8333      -9.543236     173.8333      -1.291541     -87.60133     
1.472         -2.367366     -104.679      -6.510273     155.4108      -6.510273     155.4108      -2.367366     -104.679      
1.531         -4.497754     -125.5325     -3.960681     132.5779      -3.960681     132.5779      -4.497754     -125.5325     
1.59          -8.332589     -147.6264     -2.256555     107.2743      -2.256555     107.2743      -8.332589     -147.6264     
1.649         -14.45383     -165.8428     -1.401831     82.86105      -1.401831     82.86105      -14.45383     -165.8428     
1.708         -23.92904     -170.0168     -1.059591     61.18587      -1.059591     61.18587      -23.92904     -170.0168     
1.767         -33.66965     -107.1714     -.9246141     42.05978      -.9246141     42.05978      -33.66965     -107.1714     
1.826         -32.38937     -72.73104     -.8562489     24.65718      -.8562489     24.65718      -32.38937     -72.73104     
1.885         -38.36447     -56.88346     -.8142967     8.311811      -.8142967     8.311811      -38.36447     -56.88346     
1.944         -38.13726     45.37534      -.7914535     -7.388352     -.7914535     -7.388352     -38.13726     45.37534      
2.003         -32.43607     55.26066      -.7836444     -22.73077     -.7836444     -22.73077     -32.43607     55.26066      
2.062         -35.45989     58.31784      -.7880533     -38.01267     -.7880533     -38.01267     -35.45989     58.31784      
2.121         -32.40313     -174.7459     -.8166223     -53.60427     -.8166223     -53.60427     -32.40313     -174.7459     
2.18          -20.01839     -174.9807     -.9158164     -69.90585     -.9158164     -69.90585     -20.01839     -174.9807     
2.239         -13.28277     171.8569      -1.181047     -87.16383     -1.181047     -87.16383     -13.28277     171.8569      
2.298         -8.771547     155.9676      -1.742236     -105.1648     -1.742236     -105.1648     -8.771547     155.9676      
2.357         -5.698269     139.4309      -2.698702     -123.0545     -2.698702     -123.0545     -5.698269     139.4309      
2.416         -3.682705     123.7896      -4.042652     -139.6577     -4.042652     -139.6577     -3.682705     123.7896      
2.475         -2.4143       110.048       -5.660764     -154.1264     -5.660764     -154.1264     -2.4143       110.048       
2.534         -1.631424     98.50941      -7.410429     -166.2374     -7.410429     -166.2374     -1.631424     98.50941      
2.593         -1.145551     89.00206      -9.18125      -176.2088     -9.18125      -176.2088     -1.145551     89.00206      
2.652         -.8370879     81.17941      -10.90803     175.5838      -10.90803     175.5838      -.8370879     81.17941      
2.711         -.6350311     74.69307      -12.55932     168.773       -12.55932     168.773       -.6350311     74.69307      
2.77          -.4980875     69.25272      -14.12356     163.0549      -14.12356     163.0549      -.4980875     69.25272      
2.829         -.402103      64.63287      -15.59958     158.1945      -15.59958     158.1945      -.402103      64.63287      
2.888         -.3326722     60.66262      -16.99109     154.0138      -16.99109     154.0138      -.3326722     60.66262      
2.947         -.2809818     57.21292      -18.30386     150.3783      -18.30386     150.3783      -.2809818     57.21292      
3.006         -.2414894     54.18571      -19.54423     147.1859      -19.54423     147.1859      -.2414894     54.18571      
3.065         -.2106119     51.50571      -20.71846     144.3581      -20.71846     144.3581      -.2106119     51.50571      
3.124         -.1859714     49.11444      -21.8324      141.8336      -21.8324      141.8336      -.1859714     49.11444      
3.183         -.1659493     46.96585      -22.89139     139.5644      -22.89139     139.5644      -.1659493     46.96585      
3.242         -.1494184     45.02326      -23.90023     137.5121      -23.90023     137.5121      -.1494184     45.02326      
3.301         -.135576      43.25711      -24.8632      135.6457      -24.8632      135.6457      -.135576      43.25711      
3.36          -.1238398     41.64331      -25.78415     133.94        -25.78415     133.94        -.1238398     41.64331      
3.419         -.1137788     40.16205      -26.66649     132.374       -26.66649     132.374       -.1137788     40.16205      
3.478         -.105069      38.79685      -27.51326     130.9306      -27.51326     130.9306      -.105069      38.79685      
3.537         -9.746279E-02 37.53392      -28.32718     129.5951      -28.32718     129.5951      -9.746279E-02 37.53392      
3.596         -9.076846E-02 36.3616       -29.11069     128.3554      -29.11069     128.3554      -9.076846E-02 36.3616       
3.655         -8.483534E-02 35.27001      -29.86598     127.201       -29.86598     127.201       -8.483534E-02 35.27001      
3.714         -7.954375E-02 34.25064      -30.59501     126.123       -30.59501     126.123       -7.954375E-02 34.25064      
3.773         -7.479748E-02 33.29619      -31.29958     125.1136      -31.29958     125.1136      -7.479748E-02 33.29619      
3.832         -7.051841E-02 32.40033      -31.98128     124.1662      -31.98128     124.1662      -7.051841E-02 32.40033      
3.891         -.0666425     31.55754      -32.64159     123.275       -32.64159     123.275       -.0666425     31.55754      
3.95          -.0631168     30.763        -33.28181     122.4348      -33.28181     122.4348      -.0631168     30.763        
4.009         -5.989713E-02 30.01246      -33.90318     121.6412      -33.90318     121.6412      -5.989713E-02 30.01246      
4.068         -5.694642E-02 29.30216      -34.50678     120.8901      -34.50678     120.8901      -5.694642E-02 29.30216      
4.127         -5.423327E-02 28.62879      -35.09365     120.1782      -35.09365     120.1782      -5.423327E-02 28.62879      
4.186         -5.173096E-02 27.98938      -35.66471     119.5022      -35.66471     119.5022      -5.173096E-02 27.98938      
4.245         -4.941661E-02 27.38129      -36.22081     118.8594      -36.22081     118.8594      -4.941661E-02 27.38129      
4.304         -.0472705     26.80215      -36.76275     118.2472      -36.76275     118.2472      -.0472705     26.80215      
4.363         -4.527554E-02 26.24982      -37.29126     117.6634      -37.29126     117.6634      -4.527554E-02 26.24982      
4.422         -4.341688E-02 25.7224       -37.80701     117.106       -37.80701     117.106       -4.341688E-02 25.7224       
4.481         -4.168152E-02 25.21813      -38.31062     116.5731      -38.31062     116.5731      -4.168152E-02 25.21813      
4.54          -4.005805E-02 24.73545      -38.80269     116.063       -38.80269     116.063       -4.005805E-02 24.73545      
4.599         -3.853643E-02 24.27292      -39.28374     115.5743      -39.28374     115.5743      -3.853643E-02 24.27292      
4.658         -3.710774E-02 23.82924      -39.7543      115.1056      -39.7543      115.1056      -3.710774E-02 23.82924      
4.717         -3.576409E-02 23.40321      -40.21481     114.6556      -40.21481     114.6556      -3.576409E-02 23.40321      
4.776         -3.449843E-02 22.99376      -40.66573     114.2231      -40.66573     114.2231      -3.449843E-02 22.99376      
4.835         -3.330446E-02 22.59986      -41.10747     113.807       -41.10747     113.807       -3.330446E-02 22.59986      
4.894         -3.217655E-02 22.22062      -41.54041     113.4065      -41.54041     113.4065      -3.217655E-02 22.22062      
4.953         -3.110961E-02 21.85518      -41.96491     113.0206      -41.96491     113.0206      -3.110961E-02 21.85518      
5.012         -3.009908E-02 21.50275      -42.38132     112.6485      -42.38132     112.6485      -3.009908E-02 21.50275      
5.071         -.0291408     21.16263      -42.78994     112.2894      -42.78994     112.2894      -.0291408     21.16263      
5.13          -2.823104E-02 20.83414      -43.19109     111.9426      -43.19109     111.9426      -2.823104E-02 20.83414      
5.189         -2.736639E-02 20.51667      -43.58505     111.6075      -43.58505     111.6075      -2.736639E-02 20.51667      
5.248         -2.654375E-02 20.20964      -43.97208     111.2834      -43.97208     111.2834      -2.654375E-02 20.20964      
5.307         -2.576029E-02 19.91251      -44.35244     110.9698      -44.35244     110.9698      -2.576029E-02 19.91251      
5.366         -2.501345E-02 19.62479      -44.72637     110.6662      -44.72637     110.6662      -2.501345E-02 19.62479      
5.425         -2.430084E-02 19.34602      -45.09409     110.372       -45.09409     110.372       -2.430084E-02 19.34602      
5.484         -.0236203     19.07576      -45.45583     110.0868      -45.45583     110.0868      -.0236203     19.07576      
5.543         -2.296983E-02 18.8136       -45.81177     109.8102      -45.81177     109.8102      -2.296983E-02 18.8136       
5.602         -2.234761E-02 18.55919      -46.16212     109.5418      -46.16212     109.5418      -2.234761E-02 18.55919      
5.661         -2.175193E-02 18.31214      -46.50706     109.2812      -46.50706     109.2812      -2.175193E-02 18.31214      
5.72          -2.118124E-02 18.07214      -46.84677     109.0281      -46.84677     109.0281      -2.118124E-02 18.07214      
5.779         -.0206341     17.83887      -47.1814      108.7821      -47.1814      108.7821      -.0206341     17.83887      
5.838         -2.010915E-02 17.61204      -47.51113     108.5428      -47.51113     108.5428      -2.010915E-02 17.61204      
5.897         -1.960517E-02 17.39136      -47.83609     108.3101      -47.83609     108.3101      -1.960517E-02 17.39136      
5.956         -.019121      17.17659      -48.15644     108.0836      -48.15644     108.0836      -.019121      17.17659      
6.015         -1.865556E-02 16.96748      -48.47231     107.8632      -48.47231     107.8632      -1.865556E-02 16.96748      
6.074         -1.820787E-02 16.76379      -48.78384     107.6484      -48.78384     107.6484      -1.820787E-02 16.76379      
6.133         -1.777698E-02 16.5653       -49.09114     107.4391      -49.09114     107.4391      -1.777698E-02 16.5653       
6.192         -1.736204E-02 16.37181      -49.39434     107.2352      -49.39434     107.2352      -1.736204E-02 16.37181      
6.251         -1.696223E-02 16.18313      -49.69355     107.0363      -49.69355     107.0363      -1.696223E-02 16.18313      
6.31          -.0165768     15.99906      -49.98889     106.8423      -49.98889     106.8423      -.0165768     15.99906      
6.369         -1.620503E-02 15.81944      -50.28045     106.653       -50.28045     106.653       -1.620503E-02 15.81944      
6.428         -1.584626E-02 15.64409      -50.56835     106.4682      -50.56835     106.4682      -1.584626E-02 15.64409      
6.487         -1.549987E-02 15.47286      -50.85267     106.2877      -50.85267     106.2877      -1.549987E-02 15.47286      
6.546         -1.516527E-02 15.30559      -51.13352     106.1115      -51.13352     106.1115      -1.516527E-02 15.30559      
6.605         -1.484191E-02 15.14216      -51.41097     105.9392      -51.41097     105.9392      -1.484191E-02 15.14216      
6.664         -1.452928E-02 14.98241      -51.68512     105.7709      -51.68512     105.7709      -1.452928E-02 14.98241      
6.723         -1.422688E-02 14.82622      -51.95605     105.6064      -51.95605     105.6064      -1.422688E-02 14.82622      
6.782         -1.393426E-02 14.67346      -52.22383     105.4455      -52.22383     105.4455      -1.393426E-02 14.67346      
6.841         -1.365098E-02 14.52403      -52.48856     105.288       -52.48856     105.288       -1.365098E-02 14.52403      
6.9           -1.337664E-02 14.3778       -52.75029     105.134       -52.75029     105.134       -1.337664E-02 14.3778       
6.959         -1.311086E-02 14.23467      -53.0091      104.9833      -53.0091      104.9833      -1.311086E-02 14.23467      
7.018         -1.285325E-02 14.09455      -53.26506     104.8357      -53.26506     104.8357      -1.285325E-02 14.09455      
7.077         -1.260349E-02 13.95732      -53.51823     104.6911      -53.51823     104.6911      -1.260349E-02 13.95732      
7.136         -1.236125E-02 13.82291      -53.76868     104.5496      -53.76868     104.5496      -1.236125E-02 13.82291      
7.195         -1.212621E-02 13.69121      -54.01647     104.4109      -54.01647     104.4109      -1.212621E-02 13.69121      
7.254         -1.189809E-02 13.56214      -54.26166     104.275       -54.26166     104.275       -1.189809E-02 13.56214      
7.313         -.0116766     13.43563      -54.5043      104.1418      -54.5043      104.1418      -.0116766     13.43563      
7.372         -1.146148E-02 13.3116       -54.74446     104.0112      -54.74446     104.0112      -1.146148E-02 13.3116       
7.431         -1.125249E-02 13.18996      -54.98219     103.8831      -54.98219     103.8831      -1.125249E-02 13.18996      
7.49          -1.104938E-02 13.07065      -55.21753     103.7575      -55.21753     103.7575      -1.104938E-02 13.07065      
7.549         -1.085193E-02 12.9536       -55.45053     103.6343      -55.45053     103.6343      -1.085193E-02 12.9536       
7.608         -1.065993E-02 12.83874      -55.68126     103.5133      -55.68126     103.5133      -1.065993E-02 12.83874      
7.667         -1.047316E-02 12.72601      -55.90974     103.3947      -55.90974     103.3947      -1.047316E-02 12.72601      
7.726         -1.029144E-02 12.61535      -56.13604     103.2782      -56.13604     103.2782      -1.029144E-02 12.61535      
7.785         -1.011457E-02 12.5067       -56.36019     103.1638      -56.36019     103.1638      -1.011457E-02 12.5067       
7.844         -9.942394E-03 12.4          -56.58224     103.0515      -56.58224     103.0515      -9.942394E-03 12.4          
7.903         -9.774726E-03 12.2952       -56.80222     102.9412      -56.80222     102.9412      -9.774726E-03 12.2952       
7.962         -9.61141E-03  12.19224      -57.02018     102.8329      -57.02018     102.8329      -9.61141E-03  12.19224      
8.021         -9.452293E-03 12.09108      -57.23615     102.7264      -57.23615     102.7264      -9.452293E-03 12.09108      
8.08          -9.297227E-03 11.99167      -57.45018     102.6218      -57.45018     102.6218      -9.297227E-03 11.99167      
8.139         -9.146072E-03 11.89397      -57.6623      102.519       -57.6623      102.519       -9.146072E-03 11.89397      
8.198         -8.998695E-03 11.79791      -57.87255     102.4179      -57.87255     102.4179      -8.998695E-03 11.79791      
8.257         -8.854967E-03 11.70348      -58.08096     102.3185      -58.08096     102.3185      -8.854967E-03 11.70348      
8.316         -8.714763E-03 11.61061      -58.28756     102.2208      -58.28756     102.2208      -8.714763E-03 11.61061      
8.375         -8.57797E-03  11.51927      -58.4924      102.1247      -58.4924      102.1247      -8.57797E-03  11.51927      
8.434         -8.444471E-03 11.42943      -58.69549     102.0302      -58.69549     102.0302      -8.444471E-03 11.42943      
8.493         -8.314162E-03 11.34104      -58.89687     101.9372      -58.89687     101.9372      -8.314162E-03 11.34104      
8.552         -8.186935E-03 11.25406      -59.09658     101.8457      -59.09658     101.8457      -8.186935E-03 11.25406      
8.611         -8.062695E-03 11.16848      -59.29463     101.7556      -59.29463     101.7556      -8.062695E-03 11.16848      
8.67          -7.941346E-03 11.08424      -59.49106     101.667       -59.49106     101.667       -7.941346E-03 11.08424      
8.729         -7.822795E-03 11.00131      -59.6859      101.5798      -59.6859      101.5798      -7.822795E-03 11.00131      
8.788         -7.706956E-03 10.91967      -59.87917     101.4939      -59.87917     101.4939      -7.706956E-03 10.91967      
8.847         -7.593744E-03 10.83929      -60.07091     101.4094      -60.07091     101.4094      -7.593744E-03 10.83929      
8.906         -7.483079E-03 10.76013      -60.26112     101.3261      -60.26112     101.3261      -7.483079E-03 10.76013      
8.965         -7.374883E-03 10.68217      -60.44986     101.2441      -60.44986     101.2441      -7.374883E-03 10.68217      
9.024         -7.26908E-03  10.60537      -60.63712     101.1633      -60.63712     101.1633      -7.26908E-03  10.60537      
9.083         -7.165601E-03 10.52972      -60.82294     101.0838      -60.82294     101.0838      -7.165601E-03 10.52972      
9.142         -7.064374E-03 10.45518      -61.00734     101.0054      -61.00734     101.0054      -7.064374E-03 10.45518      
9.201         -6.965335E-03 10.38173      -61.19035     100.9281      -61.19035     100.9281      -6.965335E-03 10.38173      
9.26          -6.868418E-03 10.30934      -61.37199     100.852       -61.37199     100.852       -6.868418E-03 10.30934      
9.319         -6.773562E-03 10.238        -61.55227     100.777       -61.55227     100.777       -6.773562E-03 10.238        
9.378         -6.680708E-03 10.16768      -61.73123     100.703       -61.73123     100.703       -6.680708E-03 10.16768      
9.437         -6.589799E-03 10.09835      -61.90887     100.6301      -61.90887     100.6301      -6.589799E-03 10.09835      
9.496         -6.500779E-03 10.02999      -62.08522     100.5582      -62.08522     100.5582      -6.500779E-03 10.02999      
9.555         -6.413596E-03 9.962595      -62.2603      100.4874      -62.2603      100.4874      -6.413596E-03 9.962595      
9.614         -6.328198E-03 9.896128      -62.43413     100.4175      -62.43413     100.4175      -6.328198E-03 9.896128      
9.673         -6.244535E-03 9.830575      -62.60673     100.3485      -62.60673     100.3485      -6.244535E-03 9.830575      
9.732         -6.16256E-03  9.765915      -62.77811     100.2806      -62.77811     100.2806      -6.16256E-03  9.765915      
9.791         -6.082227E-03 9.702129      -62.9483      100.2135      -62.9483      100.2135      -6.082227E-03 9.702129      
9.85          -6.003491E-03 9.639203      -63.1173      100.1473      -63.1173      100.1473      -6.003491E-03 9.639203      
9.909         -5.92631E-03  9.577115      -63.28514     100.0821      -63.28514     100.0821      -5.92631E-03  9.577115      
9.968         -5.850641E-03 9.51585       -63.45184     100.0177      -63.45184     100.0177      -5.850641E-03 9.51585       
10.027        -5.776445E-03 9.45539       -63.61741     99.95409      -63.61741     99.95409      -5.776445E-03 9.45539       
