! 2-port S-parameter file Version 2.0 by Elsie 19/04/2023 08:46:56
[Version] 2.0
# MHz S DB R 50
[Number of Ports] 2
[Two-Port Data Order] 21_12
[Number of Frequencies] 1001
! Fstart: 1  Fstop: 60
[Reference]  50 50
! Freq:       S11 mag:      S11 angle:    S21 mag:      S21 angle:    S12 mag:      S12 angle:    S22 mag:      S22 angle:
[Network data]
1             -2.811161E-02 175.2289      -80.97323     -99.256       -80.97323     -99.256       -2.811161E-02 175.2289      
1.059         -2.813754E-02 174.9449      -79.46958     -99.29429     -79.46958     -99.29429     -2.813754E-02 174.9449      
1.118         -2.816504E-02 174.6605      -78.04607     -99.35905     -78.04607     -99.35905     -2.816504E-02 174.6605      
1.177         -2.819409E-02 174.3756      -76.6944      -99.44637     -76.6944      -99.44637     -2.819409E-02 174.3756      
1.236         -2.822473E-02 174.0903      -75.4075      -99.55315     -75.4075      -99.55315     -2.822473E-02 174.0903      
1.295         -2.825695E-02 173.8045      -74.17926     -99.67679     -74.17926     -99.67679     -2.825695E-02 173.8045      
1.354         -2.829078E-02 173.5181      -73.00442     -99.8152      -73.00442     -99.8152      -2.829078E-02 173.5181      
1.413         -2.832622E-02 173.2312      -71.87836     -99.96662     -71.87836     -99.96662     -2.832622E-02 173.2312      
1.472         -2.836329E-02 172.9437      -70.79704     -100.1296     -70.79704     -100.1296     -2.836329E-02 172.9437      
1.531         -2.840201E-02 172.6555      -69.7569      -100.3028     -69.7569      -100.3028     -2.840201E-02 172.6555      
1.59          -.0284424     172.3668      -68.75478     -100.4854     -68.75478     -100.4854     -.0284424     172.3668      
1.649         -2.848446E-02 172.0774      -67.78785     -100.6762     -67.78785     -100.6762     -2.848446E-02 172.0774      
1.708         -2.852822E-02 171.7873      -66.8536      -100.8746     -66.8536      -100.8746     -2.852822E-02 171.7873      
1.767         -.0285737     171.4965      -65.94976     -101.08       -65.94976     -101.08       -.0285737     171.4965      
1.826         -2.862092E-02 171.205       -65.0743      -101.2917     -65.0743      -101.2917     -2.862092E-02 171.205       
1.885         -.0286699     170.9127      -64.22536     -101.5093     -64.22536     -101.5093     -.0286699     170.9127      
1.944         -2.872067E-02 170.6196      -63.40127     -101.7322     -63.40127     -101.7322     -2.872067E-02 170.6196      
2.003         -2.877324E-02 170.3257      -62.6005      -101.9602     -62.6005      -101.9602     -2.877324E-02 170.3257      
2.062         -2.882765E-02 170.0309      -61.82166     -102.1929     -61.82166     -102.1929     -2.882765E-02 170.0309      
2.121         -2.888392E-02 169.7353      -61.06347     -102.43       -61.06347     -102.43       -2.888392E-02 169.7353      
2.18          -2.894209E-02 169.4388      -60.32475     -102.6713     -60.32475     -102.6713     -2.894209E-02 169.4388      
2.239         -2.900217E-02 169.1413      -59.60444     -102.9164     -59.60444     -102.9164     -2.900217E-02 169.1413      
2.298         -2.906421E-02 168.8428      -58.90154     -103.1653     -58.90154     -103.1653     -2.906421E-02 168.8428      
2.357         -2.912823E-02 168.5434      -58.21512     -103.4178     -58.21512     -103.4178     -2.912823E-02 168.5434      
2.416         -2.919428E-02 168.2429      -57.54434     -103.6736     -57.54434     -103.6736     -2.919428E-02 168.2429      
2.475         -.0292624     167.9414      -56.88841     -103.9327     -56.88841     -103.9327     -.0292624     167.9414      
2.534         -2.933262E-02 167.6388      -56.2466      -104.1949     -56.2466      -104.1949     -2.933262E-02 167.6388      
2.593         -2.940498E-02 167.3351      -55.61821     -104.4601     -55.61821     -104.4601     -2.940498E-02 167.3351      
2.652         -2.947954E-02 167.0303      -55.00262     -104.7283     -55.00262     -104.7283     -2.947954E-02 167.0303      
2.711         -2.955634E-02 166.7242      -54.39922     -104.9993     -54.39922     -104.9993     -2.955634E-02 166.7242      
2.77          -2.963542E-02 166.417       -53.80747     -105.273      -53.80747     -105.273      -2.963542E-02 166.417       
2.829         -2.971686E-02 166.1085      -53.22683     -105.5495     -53.22683     -105.5495     -2.971686E-02 166.1085      
2.888         -.0298007     165.7987      -52.65682     -105.8286     -52.65682     -105.8286     -.0298007     165.7987      
2.947         -.029887      165.4877      -52.09697     -106.1103     -52.09697     -106.1103     -.029887      165.4877      
3.006         -2.997583E-02 165.1752      -51.54686     -106.3946     -51.54686     -106.3946     -2.997583E-02 165.1752      
3.065         -3.006725E-02 164.8614      -51.00607     -106.6814     -51.00607     -106.6814     -3.006725E-02 164.8614      
3.124         -3.016134E-02 164.5462      -50.47422     -106.9707     -50.47422     -106.9707     -3.016134E-02 164.5462      
3.183         -3.025818E-02 164.2296      -49.95094     -107.2625     -49.95094     -107.2625     -3.025818E-02 164.2296      
3.242         -3.035784E-02 163.9114      -49.43589     -107.5567     -49.43589     -107.5567     -3.035784E-02 163.9114      
3.301         -3.046041E-02 163.5917      -48.92875     -107.8533     -48.92875     -107.8533     -3.046041E-02 163.5917      
3.36          -3.056598E-02 163.2705      -48.4292      -108.1524     -48.4292      -108.1524     -3.056598E-02 163.2705      
3.419         -3.067465E-02 162.9477      -47.93695     -108.4539     -47.93695     -108.4539     -3.067465E-02 162.9477      
3.478         -3.078651E-02 162.6232      -47.45173     -108.7578     -47.45173     -108.7578     -3.078651E-02 162.6232      
3.537         -3.090169E-02 162.2971      -46.97326     -109.0642     -46.97326     -109.0642     -3.090169E-02 162.2971      
3.596         -3.102028E-02 161.9692      -46.5013      -109.3729     -46.5013      -109.3729     -3.102028E-02 161.9692      
3.655         -3.114242E-02 161.6396      -46.03562     -109.6841     -46.03562     -109.6841     -3.114242E-02 161.6396      
3.714         -3.126824E-02 161.3082      -45.57597     -109.9978     -45.57597     -109.9978     -3.126824E-02 161.3082      
3.773         -3.139785E-02 160.9749      -45.12215     -110.3139     -45.12215     -110.3139     -3.139785E-02 160.9749      
3.832         -3.153143E-02 160.6397      -44.67394     -110.6324     -44.67394     -110.6324     -3.153143E-02 160.6397      
3.891         -3.166911E-02 160.3027      -44.23115     -110.9535     -44.23115     -110.9535     -3.166911E-02 160.3027      
3.95          -3.181105E-02 159.9636      -43.79359     -111.277      -43.79359     -111.277      -3.181105E-02 159.9636      
4.009         -3.195745E-02 159.6225      -43.36107     -111.6031     -43.36107     -111.6031     -3.195745E-02 159.6225      
4.068         -3.210847E-02 159.2794      -42.93342     -111.9318     -42.93342     -111.9318     -3.210847E-02 159.2794      
4.127         -3.226432E-02 158.9342      -42.51048     -112.263      -42.51048     -112.263      -3.226432E-02 158.9342      
4.186         -3.242519E-02 158.5867      -42.09208     -112.5968     -42.09208     -112.5968     -3.242519E-02 158.5867      
4.245         -3.259132E-02 158.2371      -41.67808     -112.9333     -41.67808     -112.9333     -3.259132E-02 158.2371      
4.304         -3.276293E-02 157.8853      -41.26832     -113.2724     -41.26832     -113.2724     -3.276293E-02 157.8853      
4.363         -3.294026E-02 157.5311      -40.86267     -113.6143     -40.86267     -113.6143     -3.294026E-02 157.5311      
4.422         -.0331236     157.1745      -40.46098     -113.9589     -40.46098     -113.9589     -.0331236     157.1745      
4.481         -.0333132     156.8156      -40.06313     -114.3063     -40.06313     -114.3063     -.0333132     156.8156      
4.54          -3.350938E-02 156.4541      -39.66899     -114.6565     -39.66899     -114.6565     -3.350938E-02 156.4541      
4.599         -3.371245E-02 156.0901      -39.27844     -115.0096     -39.27844     -115.0096     -3.371245E-02 156.0901      
4.658         -3.392274E-02 155.7236      -38.89136     -115.3656     -38.89136     -115.3656     -3.392274E-02 155.7236      
4.717         -3.414061E-02 155.3544      -38.50764     -115.7245     -38.50764     -115.7245     -3.414061E-02 155.3544      
4.776         -3.436644E-02 154.9825      -38.12717     -116.0865     -38.12717     -116.0865     -3.436644E-02 154.9825      
4.835         -3.460063E-02 154.6078      -37.74985     -116.4515     -37.74985     -116.4515     -3.460063E-02 154.6078      
4.894         -3.484361E-02 154.2303      -37.37557     -116.8196     -37.37557     -116.8196     -3.484361E-02 154.2303      
4.953         -3.509584E-02 153.85        -37.00423     -117.1909     -37.00423     -117.1909     -3.509584E-02 153.85        
5.012         -3.535781E-02 153.4666      -36.63575     -117.5655     -36.63575     -117.5655     -3.535781E-02 153.4666      
5.071         -3.563001E-02 153.0803      -36.27003     -117.9433     -36.27003     -117.9433     -3.563001E-02 153.0803      
5.13          -3.591302E-02 152.6908      -35.90697     -118.3244     -35.90697     -118.3244     -3.591302E-02 152.6908      
5.189         -.0362074     152.2982      -35.5465      -118.7089     -35.5465      -118.7089     -.0362074     152.2982      
5.248         -3.651379E-02 151.9024      -35.18853     -119.0969     -35.18853     -119.0969     -3.651379E-02 151.9024      
5.307         -3.683284E-02 151.5033      -34.83298     -119.4885     -34.83298     -119.4885     -3.683284E-02 151.5033      
5.366         -3.716526E-02 151.1008      -34.47977     -119.8836     -34.47977     -119.8836     -3.716526E-02 151.1008      
5.425         -.0375118     150.6948      -34.12882     -120.2824     -34.12882     -120.2824     -.0375118     150.6948      
5.484         -3.787325E-02 150.2853      -33.78006     -120.6849     -33.78006     -120.6849     -3.787325E-02 150.2853      
5.543         -3.825046E-02 149.8722      -33.43342     -121.0913     -33.43342     -121.0913     -3.825046E-02 149.8722      
5.602         -3.864435E-02 149.4554      -33.08883     -121.5016     -33.08883     -121.5016     -3.864435E-02 149.4554      
5.661         -3.905588E-02 149.0347      -32.74621     -121.9158     -32.74621     -121.9158     -3.905588E-02 149.0347      
5.72          -3.948607E-02 148.6103      -32.40551     -122.3341     -32.40551     -122.3341     -3.948607E-02 148.6103      
5.779         -3.993602E-02 148.1818      -32.06666     -122.7565     -32.06666     -122.7565     -3.993602E-02 148.1818      
5.838         -.0404069     147.7493      -31.7296      -123.1832     -31.7296      -123.1832     -.0404069     147.7493      
5.897         -4.089995E-02 147.3127      -31.39425     -123.6142     -31.39425     -123.6142     -4.089995E-02 147.3127      
5.956         -4.141651E-02 146.8718      -31.06058     -124.0496     -31.06058     -124.0496     -4.141651E-02 146.8718      
6.015         -4.195798E-02 146.4265      -30.72851     -124.4895     -30.72851     -124.4895     -4.195798E-02 146.4265      
6.074         -4.252588E-02 145.9768      -30.39799     -124.9341     -30.39799     -124.9341     -4.252588E-02 145.9768      
6.133         -4.312183E-02 145.5226      -30.06897     -125.3833     -30.06897     -125.3833     -4.312183E-02 145.5226      
6.192         -4.374753E-02 145.0637      -29.74139     -125.8373     -29.74139     -125.8373     -4.374753E-02 145.0637      
6.251         -4.440484E-02 144.6         -29.41519     -126.2963     -29.41519     -126.2963     -4.440484E-02 144.6         
6.31          -.0450957     144.1314      -29.09034     -126.7603     -29.09034     -126.7603     -.0450957     144.1314      
6.369         -.0458222     143.6578      -28.76677     -127.2295     -28.76677     -127.2295     -.0458222     143.6578      
6.428         -.0465866     143.1791      -28.44443     -127.7039     -28.44443     -127.7039     -.0465866     143.1791      
6.487         -4.739125E-02 142.6951      -28.12329     -128.1838     -28.12329     -128.1838     -4.739125E-02 142.6951      
6.546         -4.823873E-02 142.2057      -27.80329     -128.6691     -27.80329     -128.6691     -4.823873E-02 142.2057      
6.605         -4.913175E-02 141.7108      -27.48439     -129.1601     -27.48439     -129.1601     -4.913175E-02 141.7108      
6.664         -5.007322E-02 141.2103      -27.16653     -129.6569     -27.16653     -129.6569     -5.007322E-02 141.2103      
6.723         -5.106626E-02 140.7039      -26.84969     -130.1596     -26.84969     -130.1596     -5.106626E-02 140.7039      
6.782         -5.211419E-02 140.1916      -26.53381     -130.6684     -26.53381     -130.6684     -5.211419E-02 140.1916      
6.841         -5.322057E-02 139.6732      -26.21886     -131.1834     -26.21886     -131.1834     -5.322057E-02 139.6732      
6.9           -.0543892     139.1486      -25.90479     -131.7047     -25.90479     -131.7047     -.0543892     139.1486      
6.959         -5.562416E-02 138.6175      -25.59156     -132.2326     -25.59156     -132.2326     -5.562416E-02 138.6175      
7.018         -.0569298     138.0799      -25.27913     -132.7672     -25.27913     -132.7672     -.0569298     138.0799      
7.077         -5.831079E-02 137.5355      -24.96746     -133.3086     -24.96746     -133.3086     -5.831079E-02 137.5355      
7.136         -5.977211E-02 136.9842      -24.65653     -133.8571     -24.65653     -133.8571     -5.977211E-02 136.9842      
7.195         -6.131911E-02 136.4258      -24.34628     -134.4128     -24.34628     -134.4128     -6.131911E-02 136.4258      
7.254         -.0629575     135.8602      -24.03669     -134.9758     -24.03669     -134.9758     -.0629575     135.8602      
7.313         -6.469344E-02 135.287       -23.72772     -135.5465     -23.72772     -135.5465     -6.469344E-02 135.287       
7.372         -6.653346E-02 134.7061      -23.41934     -136.1249     -23.41934     -136.1249     -6.653346E-02 134.7061      
7.431         -6.848463E-02 134.1174      -23.1115      -136.7114     -23.1115      -136.7114     -6.848463E-02 134.1174      
7.49          -7.055447E-02 133.5205      -22.80419     -137.306      -22.80419     -137.306      -7.055447E-02 133.5205      
7.549         -7.275107E-02 132.9154      -22.49737     -137.9091     -22.49737     -137.9091     -7.275107E-02 132.9154      
7.608         -7.508311E-02 132.3017      -22.191       -138.5208     -22.191       -138.5208     -7.508311E-02 132.3017      
7.667         -7.755988E-02 131.6792      -21.88506     -139.1414     -21.88506     -139.1414     -7.755988E-02 131.6792      
7.726         -8.019137E-02 131.0476      -21.57952     -139.7711     -21.57952     -139.7711     -8.019137E-02 131.0476      
7.785         -8.298828E-02 130.4068      -21.27436     -140.4102     -21.27436     -140.4102     -8.298828E-02 130.4068      
7.844         -8.596208E-02 129.7565      -20.96954     -141.0589     -20.96954     -141.0589     -8.596208E-02 129.7565      
7.903         -8.912512E-02 129.0963      -20.66504     -141.7175     -20.66504     -141.7175     -8.912512E-02 129.0963      
7.962         -9.249062E-02 128.426       -20.36083     -142.3863     -20.36083     -142.3863     -9.249062E-02 128.426       
8.021         -9.607281E-02 127.7454      -20.0569      -143.0656     -20.0569      -143.0656     -9.607281E-02 127.7454      
8.08          -9.988695E-02 127.0541      -19.75321     -143.7556     -19.75321     -143.7556     -9.988695E-02 127.0541      
8.139         -.1039494     126.3518      -19.44975     -144.4567     -19.44975     -144.4567     -.1039494     126.3518      
8.198         -.1082778     125.6382      -19.14651     -145.1692     -19.14651     -145.1692     -.1082778     125.6382      
8.257         -.1128912     124.913       -18.84344     -145.8934     -18.84344     -145.8934     -.1128912     124.913       
8.316         -.1178097     124.1758      -18.54056     -146.6297     -18.54056     -146.6297     -.1178097     124.1758      
8.375         -.1230554     123.4263      -18.23783     -147.3784     -18.23783     -147.3784     -.1230554     123.4263      
8.434         -.1286516     122.6641      -17.93524     -148.1398     -17.93524     -148.1398     -.1286516     122.6641      
8.493         -.1346237     121.8888      -17.63278     -148.9144     -17.63278     -148.9144     -.1346237     121.8888      
8.552         -.1409988     121.1001      -17.33044     -149.7026     -17.33044     -149.7026     -.1409988     121.1001      
8.611         -.1478062     120.2975      -17.02822     -150.5047     -17.02822     -150.5047     -.1478062     120.2975      
8.67          -.1550773     119.4807      -16.7261      -151.3211     -16.7261      -151.3211     -.1550773     119.4807      
8.729         -.1628458     118.6491      -16.42408     -152.1523     -16.42408     -152.1523     -.1628458     118.6491      
8.788         -.1711481     117.8025      -16.12216     -152.9988     -16.12216     -152.9988     -.1711481     117.8025      
8.847         -.1800233     116.9401      -15.82034     -153.8609     -15.82034     -153.8609     -.1800233     116.9401      
8.906         -.1895134     116.0618      -15.51863     -154.7392     -15.51863     -154.7392     -.1895134     116.0618      
8.965         -.1996637     115.1668      -15.21702     -155.6342     -15.21702     -155.6342     -.1996637     115.1668      
9.024         -.2105227     114.2548      -14.91554     -156.5463     -14.91554     -156.5463     -.2105227     114.2548      
9.083         -.2221428     113.3252      -14.61419     -157.476      -14.61419     -157.476      -.2221428     113.3252      
9.142         -.2345802     112.3776      -14.31299     -158.424      -14.31299     -158.424      -.2345802     112.3776      
9.201         -.2478953     111.4112      -14.01197     -159.3906     -14.01197     -159.3906     -.2478953     111.4112      
9.26          -.262153      110.4257      -13.71114     -160.3766     -13.71114     -160.3766     -.262153      110.4257      
9.319         -.2774233     109.4204      -13.41054     -161.3824     -13.41054     -161.3824     -.2774233     109.4204      
9.378         -.293781      108.3947      -13.11019     -162.4087     -13.11019     -162.4087     -.293781      108.3947      
9.437         -.3113066     107.348       -12.81015     -163.456      -12.81015     -163.456      -.3113066     107.348       
9.496         -.3300867     106.2798      -12.51045     -164.5249     -12.51045     -164.5249     -.3300867     106.2798      
9.555         -.350214      105.1894      -12.21114     -165.6162     -12.21114     -165.6162     -.350214      105.1894      
9.614         -.3717879     104.0761      -11.91229     -166.7303     -11.91229     -166.7303     -.3717879     104.0761      
9.673         -.394915      102.9394      -11.61395     -167.868      -11.61395     -167.868      -.394915      102.9394      
9.732         -.4197094     101.7786      -11.3162      -169.0298     -11.3162      -169.0298     -.4197094     101.7786      
9.791         -.4462934     100.5931      -11.01911     -170.2165     -11.01911     -170.2165     -.4462934     100.5931      
9.85          -.4747975     99.38216      -10.72277     -171.4287     -10.72277     -171.4287     -.4747975     99.38216      
9.909         -.5053613     98.14518      -10.42727     -172.667      -10.42727     -172.667      -.5053613     98.14518      
9.968         -.5381336     96.88152      -10.13273     -173.932      -10.13273     -173.932      -.5381336     96.88152      
10.027        -.5732732     95.59054      -9.839241     -175.2245     -9.839241     -175.2245     -.5732732     95.59054      
