! 2-port S-parameter file Version 2.0 by Elsie 19/04/2023 08:47:41
[Version] 2.0
# MHz S DB R 50
[Number of Ports] 2
[Two-Port Data Order] 21_12
[Number of Frequencies] 1001
! Fstart: 1  Fstop: 60
[Reference]  50 50
! Freq:       S11 mag:      S11 angle:    S21 mag:      S21 angle:    S12 mag:      S12 angle:    S22 mag:      S22 angle:
[Network data]
1             -1.271804E-02 177.8368      -99.54673     -96.63608     -99.54673     -96.63608     -1.271804E-02 177.8368      
1.059         -1.272244E-02 177.7088      -98.05009     -96.51771     -98.05009     -96.51771     -1.272244E-02 177.7088      
1.118         -1.272709E-02 177.5807      -96.63398     -96.42544     -96.63398     -96.42544     -1.272709E-02 177.5807      
1.177         -.012732      177.4525      -95.29013     -96.35535     -95.29013     -96.35535     -.012732      177.4525      
1.236         -1.273717E-02 177.3243      -94.01145     -96.30431     -94.01145     -96.30431     -1.273717E-02 177.3243      
1.295         -.0127426     177.1959      -92.79185     -96.26972     -92.79185     -96.26972     -.0127426     177.1959      
1.354         -1.274829E-02 177.0675      -91.62605     -96.24945     -91.62605     -96.24945     -1.274829E-02 177.0675      
1.413         -1.275425E-02 176.939       -90.50943     -96.24172     -90.50943     -96.24172     -1.275425E-02 176.939       
1.472         -1.276047E-02 176.8104      -89.43798     -96.24504     -89.43798     -96.24504     -1.276047E-02 176.8104      
1.531         -1.276695E-02 176.6817      -88.40811     -96.25815     -88.40811     -96.25815     -1.276695E-02 176.6817      
1.59          -1.277369E-02 176.5529      -87.41668     -96.27998     -87.41668     -96.27998     -1.277369E-02 176.5529      
1.649         -1.278071E-02 176.4239      -86.46085     -96.30959     -86.46085     -96.30959     -1.278071E-02 176.4239      
1.708         -1.278798E-02 176.2949      -85.53812     -96.34622     -85.53812     -96.34622     -1.278798E-02 176.2949      
1.767         -1.279553E-02 176.1658      -84.64623     -96.38916     -84.64623     -96.38916     -1.279553E-02 176.1658      
1.826         -1.280335E-02 176.0365      -83.78312     -96.43783     -83.78312     -96.43783     -1.280335E-02 176.0365      
1.885         -1.281144E-02 175.9071      -82.94696     -96.49169     -82.94696     -96.49169     -1.281144E-02 175.9071      
1.944         -.0128198     175.7776      -82.13606     -96.55029     -82.13606     -96.55029     -.0128198     175.7776      
2.003         -1.282843E-02 175.648       -81.34892     -96.61324     -81.34892     -96.61324     -1.282843E-02 175.648       
2.062         -1.283734E-02 175.5182      -80.58411     -96.68017     -80.58411     -96.68017     -1.283734E-02 175.5182      
2.121         -1.284652E-02 175.3883      -79.84039     -96.75076     -79.84039     -96.75076     -1.284652E-02 175.3883      
2.18          -1.285598E-02 175.2582      -79.11658     -96.82473     -79.11658     -96.82473     -1.285598E-02 175.2582      
2.239         -1.286572E-02 175.128       -78.41159     -96.90184     -78.41159     -96.90184     -1.286572E-02 175.128       
2.298         -1.287574E-02 174.9977      -77.72445     -96.98185     -77.72445     -96.98185     -1.287574E-02 174.9977      
2.357         -1.288604E-02 174.8671      -77.05422     -97.06457     -77.05422     -97.06457     -1.288604E-02 174.8671      
2.416         -1.289663E-02 174.7365      -76.40007     -97.1498      -76.40007     -97.1498      -1.289663E-02 174.7365      
2.475         -1.290749E-02 174.6056      -75.7612      -97.2374      -75.7612      -97.2374      -1.290749E-02 174.6056      
2.534         -1.291865E-02 174.4746      -75.13688     -97.3272      -75.13688     -97.3272      -1.291865E-02 174.4746      
2.593         -.0129301     174.3434      -74.52644     -97.41908     -74.52644     -97.41908     -.0129301     174.3434      
2.652         -1.294183E-02 174.2121      -73.92922     -97.51291     -73.92922     -97.51291     -1.294183E-02 174.2121      
2.711         -1.295386E-02 174.0805      -73.34465     -97.60858     -73.34465     -97.60858     -1.295386E-02 174.0805      
2.77          -1.296618E-02 173.9488      -72.77216     -97.70599     -72.77216     -97.70599     -1.296618E-02 173.9488      
2.829         -1.297879E-02 173.8169      -72.21124     -97.80505     -72.21124     -97.80505     -1.297879E-02 173.8169      
2.888         -1.299171E-02 173.6848      -71.6614      -97.90566     -71.6614      -97.90566     -1.299171E-02 173.6848      
2.947         -1.300492E-02 173.5525      -71.12218     -98.00776     -71.12218     -98.00776     -1.300492E-02 173.5525      
3.006         -1.301844E-02 173.42        -70.59315     -98.11127     -70.59315     -98.11127     -1.301844E-02 173.42        
3.065         -1.303226E-02 173.2872      -70.07389     -98.21613     -70.07389     -98.21613     -1.303226E-02 173.2872      
3.124         -1.304639E-02 173.1543      -69.56403     -98.32228     -69.56403     -98.32228     -1.304639E-02 173.1543      
3.183         -1.306082E-02 173.0211      -69.06321     -98.42966     -69.06321     -98.42966     -1.306082E-02 173.0211      
3.242         -1.307557E-02 172.8878      -68.57108     -98.53823     -68.57108     -98.53823     -1.307557E-02 172.8878      
3.301         -1.309063E-02 172.7542      -68.08733     -98.64793     -68.08733     -98.64793     -1.309063E-02 172.7542      
3.36          -.013106      172.6203      -67.61164     -98.75872     -67.61164     -98.75872     -.013106      172.6203      
3.419         -.0131217     172.4862      -67.14373     -98.87056     -67.14373     -98.87056     -.0131217     172.4862      
3.478         -1.313771E-02 172.3519      -66.68331     -98.98342     -66.68331     -98.98342     -1.313771E-02 172.3519      
3.537         -1.315405E-02 172.2174      -66.23014     -99.09726     -66.23014     -99.09726     -1.315405E-02 172.2174      
3.596         -1.317072E-02 172.0826      -65.78395     -99.21205     -65.78395     -99.21205     -1.317072E-02 172.0826      
3.655         -1.318772E-02 171.9475      -65.34452     -99.32777     -65.34452     -99.32777     -1.318772E-02 171.9475      
3.714         -1.320505E-02 171.8122      -64.91161     -99.44437     -64.91161     -99.44437     -1.320505E-02 171.8122      
3.773         -1.322271E-02 171.6766      -64.48502     -99.56184     -64.48502     -99.56184     -1.322271E-02 171.6766      
3.832         -1.324072E-02 171.5407      -64.06454     -99.68017     -64.06454     -99.68017     -1.324072E-02 171.5407      
3.891         -1.325906E-02 171.4046      -63.64998     -99.79932     -63.64998     -99.79932     -1.325906E-02 171.4046      
3.95          -1.327776E-02 171.2682      -63.24114     -99.91927     -63.24114     -99.91927     -1.327776E-02 171.2682      
4.009         -.0132968     171.1315      -62.83785     -100.04       -62.83785     -100.04       -.0132968     171.1315      
4.068         -1.331619E-02 170.9945      -62.43995     -100.1615     -62.43995     -100.1615     -1.331619E-02 170.9945      
4.127         -1.333594E-02 170.8572      -62.04725     -100.2838     -62.04725     -100.2838     -1.333594E-02 170.8572      
4.186         -1.335605E-02 170.7197      -61.65962     -100.4068     -61.65962     -100.4068     -1.335605E-02 170.7197      
4.245         -1.337653E-02 170.5818      -61.27689     -100.5305     -61.27689     -100.5305     -1.337653E-02 170.5818      
4.304         -1.339737E-02 170.4436      -60.89894     -100.655      -60.89894     -100.655      -1.339737E-02 170.4436      
4.363         -1.341859E-02 170.3051      -60.52561     -100.7801     -60.52561     -100.7801     -1.341859E-02 170.3051      
4.422         -1.344018E-02 170.1663      -60.15678     -100.906      -60.15678     -100.906      -1.344018E-02 170.1663      
4.481         -1.346215E-02 170.0271      -59.79232     -101.0325     -59.79232     -101.0325     -1.346215E-02 170.0271      
4.54          -1.348451E-02 169.8876      -59.43211     -101.1597     -59.43211     -101.1597     -1.348451E-02 169.8876      
4.599         -1.350726E-02 169.7478      -59.07603     -101.2876     -59.07603     -101.2876     -1.350726E-02 169.7478      
4.658         -1.353041E-02 169.6077      -58.72397     -101.4162     -58.72397     -101.4162     -1.353041E-02 169.6077      
4.717         -1.355395E-02 169.4671      -58.37582     -101.5454     -58.37582     -101.5454     -1.355395E-02 169.4671      
4.776         -.0135779     169.3263      -58.03148     -101.6752     -58.03148     -101.6752     -.0135779     169.3263      
4.835         -1.360226E-02 169.1851      -57.69083     -101.8057     -57.69083     -101.8057     -1.360226E-02 169.1851      
4.894         -1.362704E-02 169.0435      -57.35379     -101.9368     -57.35379     -101.9368     -1.362704E-02 169.0435      
4.953         -1.365223E-02 168.9016      -57.02027     -102.0686     -57.02027     -102.0686     -1.365223E-02 168.9016      
5.012         -1.367786E-02 168.7592      -56.69017     -102.201      -56.69017     -102.201      -1.367786E-02 168.7592      
5.071         -1.370392E-02 168.6165      -56.36341     -102.334      -56.36341     -102.334      -1.370392E-02 168.6165      
5.13          -1.373041E-02 168.4734      -56.0399      -102.4677     -56.0399      -102.4677     -1.373041E-02 168.4734      
5.189         -1.375736E-02 168.3299      -55.71955     -102.6019     -55.71955     -102.6019     -1.375736E-02 168.3299      
5.248         -1.378475E-02 168.1861      -55.40231     -102.7368     -55.40231     -102.7368     -1.378475E-02 168.1861      
5.307         -1.381261E-02 168.0418      -55.08807     -102.8723     -55.08807     -102.8723     -1.381261E-02 168.0418      
5.366         -1.384093E-02 167.8971      -54.77678     -103.0085     -54.77678     -103.0085     -1.384093E-02 167.8971      
5.425         -1.386973E-02 167.752       -54.46835     -103.1452     -54.46835     -103.1452     -1.386973E-02 167.752       
5.484         -.013899      167.6064      -54.16273     -103.2826     -54.16273     -103.2826     -.013899      167.6064      
5.543         -1.392877E-02 167.4605      -53.85984     -103.4206     -53.85984     -103.4206     -1.392877E-02 167.4605      
5.602         -1.395903E-02 167.3141      -53.55962     -103.5592     -53.55962     -103.5592     -1.395903E-02 167.3141      
5.661         -1.398979E-02 167.1672      -53.26202     -103.6984     -53.26202     -103.6984     -1.398979E-02 167.1672      
5.72          -1.402107E-02 167.0199      -52.96695     -103.8383     -52.96695     -103.8383     -1.402107E-02 167.0199      
5.779         -1.405287E-02 166.8722      -52.67438     -103.9788     -52.67438     -103.9788     -1.405287E-02 166.8722      
5.838         -1.408521E-02 166.724       -52.38423     -104.1199     -52.38423     -104.1199     -1.408521E-02 166.724       
5.897         -1.411808E-02 166.5753      -52.09646     -104.2616     -52.09646     -104.2616     -1.411808E-02 166.5753      
5.956         -.0141515     166.4262      -51.81101     -104.4039     -51.81101     -104.4039     -.0141515     166.4262      
6.015         -1.418548E-02 166.2766      -51.52783     -104.5469     -51.52783     -104.5469     -1.418548E-02 166.2766      
6.074         -1.422004E-02 166.1264      -51.24687     -104.6905     -51.24687     -104.6905     -1.422004E-02 166.1264      
6.133         -1.425517E-02 165.9758      -50.96807     -104.8348     -50.96807     -104.8348     -1.425517E-02 165.9758      
6.192         -.0142909     165.8247      -50.6914      -104.9797     -50.6914      -104.9797     -.0142909     165.8247      
6.251         -1.432722E-02 165.6731      -50.4168      -105.1252     -50.4168      -105.1252     -1.432722E-02 165.6731      
6.31          -1.436417E-02 165.521       -50.14423     -105.2714     -50.14423     -105.2714     -1.436417E-02 165.521       
6.369         -1.440174E-02 165.3683      -49.87364     -105.4182     -49.87364     -105.4182     -1.440174E-02 165.3683      
6.428         -1.443995E-02 165.2151      -49.60499     -105.5657     -49.60499     -105.5657     -1.443995E-02 165.2151      
6.487         -1.447881E-02 165.0614      -49.33824     -105.7138     -49.33824     -105.7138     -1.447881E-02 165.0614      
6.546         -1.451834E-02 164.9072      -49.07335     -105.8626     -49.07335     -105.8626     -1.451834E-02 164.9072      
6.605         -1.455855E-02 164.7523      -48.81028     -106.012      -48.81028     -106.012      -1.455855E-02 164.7523      
6.664         -1.459945E-02 164.597       -48.54899     -106.1621     -48.54899     -106.1621     -1.459945E-02 164.597       
6.723         -1.464107E-02 164.441       -48.28944     -106.3129     -48.28944     -106.3129     -1.464107E-02 164.441       
6.782         -.0146834     164.2845      -48.0316      -106.4644     -48.0316      -106.4644     -.0146834     164.2845      
6.841         -1.472648E-02 164.1274      -47.77542     -106.6166     -47.77542     -106.6166     -1.472648E-02 164.1274      
6.9           -1.477031E-02 163.9697      -47.52089     -106.7694     -47.52089     -106.7694     -1.477031E-02 163.9697      
6.959         -1.481492E-02 163.8114      -47.26794     -106.923      -47.26794     -106.923      -1.481492E-02 163.8114      
7.018         -1.486032E-02 163.6526      -47.01657     -107.0772     -47.01657     -107.0772     -1.486032E-02 163.6526      
7.077         -1.490653E-02 163.493       -46.76674     -107.2322     -46.76674     -107.2322     -1.490653E-02 163.493       
7.136         -1.495356E-02 163.3329      -46.5184      -107.3879     -46.5184      -107.3879     -1.495356E-02 163.3329      
7.195         -1.500145E-02 163.1721      -46.27154     -107.5443     -46.27154     -107.5443     -1.500145E-02 163.1721      
7.254         -.0150502     163.0107      -46.02612     -107.7014     -46.02612     -107.7014     -.0150502     163.0107      
7.313         -1.509984E-02 162.8487      -45.78211     -107.8592     -45.78211     -107.8592     -1.509984E-02 162.8487      
7.372         -1.515039E-02 162.686       -45.53949     -108.0178     -45.53949     -108.0178     -1.515039E-02 162.686       
7.431         -1.520188E-02 162.5226      -45.29821     -108.1772     -45.29821     -108.1772     -1.520188E-02 162.5226      
7.49          -1.525432E-02 162.3586      -45.05827     -108.3373     -45.05827     -108.3373     -1.525432E-02 162.3586      
7.549         -1.530774E-02 162.1938      -44.81963     -108.4981     -44.81963     -108.4981     -1.530774E-02 162.1938      
7.608         -1.536217E-02 162.0284      -44.58225     -108.6598     -44.58225     -108.6598     -1.536217E-02 162.0284      
7.667         -1.541763E-02 161.8622      -44.34613     -108.8222     -44.34613     -108.8222     -1.541763E-02 161.8622      
7.726         -1.547414E-02 161.6954      -44.11123     -108.9854     -44.11123     -108.9854     -1.547414E-02 161.6954      
7.785         -1.553174E-02 161.5278      -43.87753     -109.1493     -43.87753     -109.1493     -1.553174E-02 161.5278      
7.844         -1.559046E-02 161.3595      -43.645       -109.3141     -43.645       -109.3141     -1.559046E-02 161.3595      
7.903         -1.565032E-02 161.1905      -43.41362     -109.4797     -43.41362     -109.4797     -1.565032E-02 161.1905      
7.962         -1.571135E-02 161.0207      -43.18336     -109.6461     -43.18336     -109.6461     -1.571135E-02 161.0207      
8.021         -1.577359E-02 160.8501      -42.95421     -109.8134     -42.95421     -109.8134     -1.577359E-02 160.8501      
8.08          -1.583707E-02 160.6788      -42.72614     -109.9814     -42.72614     -109.9814     -1.583707E-02 160.6788      
8.139         -1.590183E-02 160.5067      -42.49912     -110.1504     -42.49912     -110.1504     -1.590183E-02 160.5067      
8.198         -1.596789E-02 160.3338      -42.27315     -110.3201     -42.27315     -110.3201     -1.596789E-02 160.3338      
8.257         -.0160353     160.1601      -42.04819     -110.4908     -42.04819     -110.4908     -.0160353     160.1601      
8.316         -.0161041     159.9856      -41.82422     -110.6623     -41.82422     -110.6623     -.0161041     159.9856      
8.375         -1.617432E-02 159.8102      -41.60123     -110.8347     -41.60123     -110.8347     -1.617432E-02 159.8102      
8.434         -1.624601E-02 159.6341      -41.3792      -111.008      -41.3792      -111.008      -1.624601E-02 159.6341      
8.493         -1.631921E-02 159.457       -41.1581      -111.1821     -41.1581      -111.1821     -1.631921E-02 159.457       
8.552         -1.639396E-02 159.2791      -40.93792     -111.3573     -40.93792     -111.3573     -1.639396E-02 159.2791      
8.611         -1.647031E-02 159.1004      -40.71863     -111.5333     -40.71863     -111.5333     -1.647031E-02 159.1004      
8.67          -1.654831E-02 158.9207      -40.50022     -111.7102     -40.50022     -111.7102     -1.654831E-02 158.9207      
8.729         -.016628      158.7402      -40.28267     -111.8882     -40.28267     -111.8882     -.016628      158.7402      
8.788         -1.670944E-02 158.5588      -40.06597     -112.067      -40.06597     -112.067      -1.670944E-02 158.5588      
8.847         -1.679269E-02 158.3764      -39.85009     -112.2469     -39.85009     -112.2469     -1.679269E-02 158.3764      
8.906         -1.687779E-02 158.1931      -39.63502     -112.4277     -39.63502     -112.4277     -1.687779E-02 158.1931      
8.965         -.0169648     158.0089      -39.42073     -112.6095     -39.42073     -112.6095     -.0169648     158.0089      
9.024         -.0170538     157.8237      -39.20723     -112.7923     -39.20723     -112.7923     -.0170538     157.8237      
9.083         -1.714483E-02 157.6375      -38.99448     -112.9761     -38.99448     -112.9761     -1.714483E-02 157.6375      
9.142         -1.723796E-02 157.4504      -38.78247     -113.161      -38.78247     -113.161      -1.723796E-02 157.4504      
9.201         -1.733325E-02 157.2623      -38.57118     -113.3469     -38.57118     -113.3469     -1.733325E-02 157.2623      
9.26          -1.743079E-02 157.0731      -38.36061     -113.5339     -38.36061     -113.5339     -1.743079E-02 157.0731      
9.319         -1.753064E-02 156.8829      -38.15072     -113.7219     -38.15072     -113.7219     -1.753064E-02 156.8829      
9.378         -1.763287E-02 156.6917      -37.94152     -113.911      -37.94152     -113.911      -1.763287E-02 156.6917      
9.437         -1.773757E-02 156.4995      -37.73298     -114.1012     -37.73298     -114.1012     -1.773757E-02 156.4995      
9.496         -1.784481E-02 156.3061      -37.52509     -114.2925     -37.52509     -114.2925     -1.784481E-02 156.3061      
9.555         -1.795468E-02 156.1117      -37.31783     -114.4849     -37.31783     -114.4849     -1.795468E-02 156.1117      
9.614         -1.806727E-02 155.9162      -37.1112      -114.6785     -37.1112      -114.6785     -1.806727E-02 155.9162      
9.673         -1.818267E-02 155.7196      -36.90517     -114.8732     -36.90517     -114.8732     -1.818267E-02 155.7196      
9.732         -1.830096E-02 155.5219      -36.69973     -115.0691     -36.69973     -115.0691     -1.830096E-02 155.5219      
9.791         -1.842226E-02 155.323       -36.49487     -115.2662     -36.49487     -115.2662     -1.842226E-02 155.323       
9.85          -1.854667E-02 155.1229      -36.29057     -115.4645     -36.29057     -115.4645     -1.854667E-02 155.1229      
9.909         -1.867428E-02 154.9217      -36.08682     -115.664      -36.08682     -115.664      -1.867428E-02 154.9217      
9.968         -1.880522E-02 154.7193      -35.88361     -115.8647     -35.88361     -115.8647     -1.880522E-02 154.7193      
10.027        -1.893959E-02 154.5156      -35.68093     -116.0667     -35.68093     -116.0667     -1.893959E-02 154.5156      
