! 2-port S-parameter file Version 2.0 by Elsie 19/04/2023 08:45:20
[Version] 2.0
# MHz S DB R 50
[Number of Ports] 2
[Two-Port Data Order] 21_12
[Number of Frequencies] 1001
! Fstart: 1  Fstop: 60
[Reference]  50 50
! Freq:       S11 mag:      S11 angle:    S21 mag:      S21 angle:    S12 mag:      S12 angle:    S22 mag:      S22 angle:
[Network data]
1             -.1920242     150.9866      -30.97938     -124.0055     -30.97938     -124.0055     -.1920242     150.9866      
1.059         -.1996192     148.7984      -29.17991     -125.9869     -29.17991     -125.9869     -.1996192     148.7984      
1.118         -.2088085     146.5041      -27.43876     -128.1024     -27.43876     -128.1024     -.2088085     146.5041      
1.177         -.2200657     144.0889      -25.74679     -130.363      -25.74679     -130.363      -.2200657     144.0889      
1.236         -.2340363     141.5355      -24.09607     -132.7831     -24.09607     -132.7831     -.2340363     141.5355      
1.295         -.2516058     138.8238      -22.47968     -135.3808     -22.47968     -135.3808     -.2516058     138.8238      
1.354         -.2739966     135.9297      -20.8916      -138.1783     -20.8916      -138.1783     -.2739966     135.9297      
1.413         -.3029069     132.8249      -19.32666     -141.2026     -19.32666     -141.2026     -.3029069     132.8249      
1.472         -.3407115     129.4756      -17.78057     -144.4866     -17.78057     -144.4866     -.3407115     129.4756      
1.531         -.3907504     125.8419      -16.25002     -148.0698     -16.25002     -148.0698     -.3907504     125.8419      
1.59          -.457746      121.876       -14.73296     -151.9994     -14.73296     -151.9994     -.457746      121.876       
1.649         -.5483988     117.5225      -13.22895     -156.3314     -13.22895     -156.3314     -.5483988     117.5225      
1.708         -.6722288     112.7171      -11.7398      -161.1305     -11.7398      -161.1305     -.6722288     112.7171      
1.767         -.8427274     107.3884      -10.27042     -166.4694     -10.27042     -166.4694     -.8427274     107.3884      
1.826         -1.078859     101.4614      -8.829923     -172.4247     -8.829923     -172.4247     -1.078859     101.4614      
1.885         -1.406848     94.86646      -7.432851     -179.069      -7.432851     -179.069      -1.406848     94.86646      
1.944         -1.861963     87.55441      -6.100195     173.5443      -6.100195     173.5443      -1.861963     87.55441      
2.003         -2.489693     79.52027      -4.85935      165.404       -4.85935      165.404       -2.489693     79.52027      
2.062         -3.345472     70.83188      -3.741936     156.5682      -3.741936     156.5682      -3.345472     70.83188      
2.121         -4.492667     61.65372      -2.778589     147.1858      -2.778589     147.1858      -4.492667     61.65372      
2.18          -6.000701     52.25036      -1.991355     137.4947      -1.991355     137.4947      -6.000701     52.25036      
2.239         -7.949176     42.96212      -1.386693     127.7867      -1.386693     127.7867      -7.949176     42.96212      
2.298         -10.44952     34.17324      -.9530393     118.3464      -.9530393     118.3464      -10.44952     34.17324      
2.357         -13.70952     26.34464      -.6645003     109.3942      -.6645003     109.3942      -13.70952     26.34464      
2.416         -18.23573     20.36865      -.4883246     101.0585      -.4883246     101.0585      -18.23573     20.36865      
2.475         -25.80445     20.63374      -.3921345     93.38062      -.3921345     93.38062      -25.80445     20.63374      
2.534         -36.17792     130.3384      -.3484252     86.33848      -.3484252     86.33848      -36.17792     130.3384      
2.593         -24.50506     162.4306      -.3361458     79.87403      -.3361458     79.87403      -24.50506     162.4306      
2.652         -20.25643     161.0885      -.3403858     73.91422      -.3403858     73.91422      -20.25643     161.0885      
2.711         -17.99502     157.3234      -.351243      68.38442      -.351243      68.38442      -17.99502     157.3234      
2.77          -16.64099     153.1031      -.3625553     63.21553      -.3625553     63.21553      -16.64099     153.1031      
2.829         -15.81342     148.8433      -.3708011     58.34698      -.3708011     58.34698      -15.81342     148.8433      
2.888         -15.3361      144.6629      -.3742497     53.72739      -.3742497     53.72739      -15.3361      144.6629      
2.947         -15.11524     140.596       -.3723447     49.31407      -.3723447     49.31407      -15.11524     140.596       
3.006         -15.09721     136.6485      -.3652724     45.07212      -.3652724     45.07212      -15.09721     136.6485      
3.065         -15.25071     132.817       -.3536642     40.97326      -.3536642     40.97326      -15.25071     132.817       
3.124         -15.55849     129.0961      -.338395      36.99488      -.338395      36.99488      -15.55849     129.0961      
3.183         -16.01323     125.4824      -.3204467     33.11901      -.3204467     33.11901      -16.01323     125.4824      
3.242         -16.61579     121.9756      -.3008161     29.33162      -.3008161     29.33162      -16.61579     121.9756      
3.301         -17.37502     118.5812      -.2804542     25.62179      -.2804542     25.62179      -17.37502     118.5812      
3.36          -18.30908     115.3126      -.2602254     21.98124      -.2602254     21.98124      -18.30908     115.3126      
3.419         -19.44879     112.1965      -.2408829     18.40377      -.2408829     18.40377      -19.44879     112.1965      
3.478         -20.84468     109.2834      -.2230541     14.88481      -.2230541     14.88481      -20.84468     109.2834      
3.537         -22.58188     106.6735      -.2072341     11.42109      -.2072341     11.42109      -22.58188     106.6735      
3.596         -24.81446     104.5882      -.1937855     8.0103        -.1937855     8.0103        -24.81446     104.5882      
3.655         -27.85953     103.619       -.1829428     4.650824      -.1829428     4.650824      -27.85953     103.619       
3.714         -32.53261     106.0171      -.17482       1.341501      -.17482       1.341501      -32.53261     106.0171      
3.773         -41.76527     131.6148      -.1694214     -1.918561     -.1694214     -1.918561     -41.76527     131.6148      
3.832         -38.49594     -121.1674     -.1666542     -5.130154     -.1666542     -5.130154     -38.49594     -121.1674     
3.891         -31.3019      -108.4186     -.166342      -8.294091     -.166342      -8.294091     -31.3019      -108.4186     
3.95          -27.43036     -107.2472     -.1682392     -11.41132     -.1682392     -11.41132     -27.43036     -107.2472     
4.009         -24.8572      -108.3292     -.1720457     -14.483       -.1720457     -14.483       -24.8572      -108.3292     
4.068         -22.9732      -110.1946     -.1774207     -17.51053     -.1774207     -17.51053     -22.9732      -110.1946     
4.127         -21.52132     -112.4057     -.1839963     -20.49565     -.1839963     -20.49565     -21.52132     -112.4057     
4.186         -20.36974     -114.7878     -.1913901     -23.4404      -.1913901     -23.4404      -20.36974     -114.7878     
4.245         -19.44224     -117.2582     -.1992166     -26.34715     -.1992166     -26.34715     -19.44224     -117.2582     
4.304         -18.69113     -119.7731     -.207098      -29.21861     -.207098      -29.21861     -18.69113     -119.7731     
4.363         -18.08504     -122.308      -.2146728     -32.05783     -.2146728     -32.05783     -18.08504     -122.308      
4.422         -17.60265     -124.8481     -.2216049     -34.86815     -.2216049     -34.86815     -17.60265     -124.8481     
4.481         -17.22934     -127.3846     -.2275905     -37.65322     -.2275905     -37.65322     -17.22934     -127.3846     
4.54          -16.95528     -129.9119     -.2323648     -40.41696     -.2323648     -40.41696     -16.95528     -129.9119     
4.599         -16.77429     -132.4263     -.2357083     -43.16354     -.2357083     -43.16354     -16.77429     -132.4263     
4.658         -16.68326     -134.9251     -.237452      -45.89736     -.237452      -45.89736     -16.68326     -134.9251     
4.717         -16.68181     -137.4056     -.2374827     -48.62304     -.2374827     -48.62304     -16.68181     -137.4056     
4.776         -16.77234     -139.8648     -.2357488     -51.34537     -.2357488     -51.34537     -16.77234     -139.8648     
4.835         -16.96033     -142.2979     -.2322648     -54.06929     -.2322648     -54.06929     -16.96033     -142.2979     
4.894         -17.25491     -144.6973     -.227117      -56.79987     -.227117      -56.79987     -17.25491     -144.6973     
4.953         -17.67004     -147.0508     -.2204689     -59.54228     -.2204689     -59.54228     -17.67004     -147.0508     
5.012         -18.22645     -149.3374     -.2125673     -62.30172     -.2125673     -62.30172     -18.22645     -149.3374     
5.071         -18.95501     -151.5216     -.2037476     -65.08341     -.2037476     -65.08341     -18.95501     -151.5216     
5.13          -19.9029      -153.5391     -.1944404     -67.89252     -.1944404     -67.89252     -19.9029      -153.5391     
5.189         -21.14586     -155.2666     -.1851767     -70.73409     -.1851767     -70.73409     -21.14586     -155.2666     
5.248         -22.81463     -156.4414     -.1765939     -73.61297     -.1765939     -73.61297     -22.81463     -156.4414     
5.307         -25.1613      -156.4022     -.1694397     -76.53374     -.1694397     -76.53374     -25.1613      -156.4022     
5.366         -28.75993     -152.9463     -.1645756     -79.50059     -.1645756     -79.50059     -28.75993     -152.9463     
5.425         -35.11405     -133.3906     -.1629776     -82.51717     -.1629776     -82.51717     -35.11405     -133.3906     
5.484         -36.33694     -46.0323      -.1657342     -85.58652     -.1657342     -85.58652     -36.33694     -46.0323      
5.543         -28.60482     -18.26658     -.1740408     -88.71083     -.1740408     -88.71083     -28.60482     -18.26658     
5.602         -23.93685     -13.78155     -.1891891     -91.89138     -.1891891     -91.89138     -23.93685     -13.78155     
5.661         -20.69803     -13.69643     -.212551      -95.1283      -.212551      -95.1283      -20.69803     -13.69643     
5.72          -18.20844     -15.14155     -.2455563     -98.42049     -.2455563     -98.42049     -18.20844     -15.14155     
5.779         -16.18023     -17.31033     -.2896637     -101.7654     -.2896637     -101.7654     -16.18023     -17.31033     
5.838         -14.46776     -19.8885      -.3463252     -105.159      -.3463252     -105.159      -14.46776     -19.8885      
5.897         -12.98778     -22.72582     -.4169453     -108.5957     -.4169453     -108.5957     -12.98778     -22.72582     
5.956         -11.68846     -25.73878     -.5028353     -112.0684     -.5028353     -112.0684     -11.68846     -25.73878     
6.015         -10.53545     -28.87459     -.6051667     -115.5684     -.6051667     -115.5684     -10.53545     -28.87459     
6.074         -9.504772     -32.096       -.7249247     -119.0857     -.7249247     -119.0857     -9.504772     -32.096       
6.133         -8.578968     -35.37416     -.8628676     -122.6093     -.8628676     -122.6093     -8.578968     -35.37416     
6.192         -7.744822     -38.6851      -1.019493     -126.1273     -1.019493     -126.1273     -7.744822     -38.6851      
6.251         -6.991953     -42.00792     -1.195014     -129.6272     -1.195014     -129.6272     -6.991953     -42.00792     
6.31          -6.31192      -45.32399     -1.389353     -133.0965     -1.389353     -133.0965     -6.31192      -45.32399     
6.369         -5.697632     -48.61652     -1.602142     -136.5231     -1.602142     -136.5231     -5.697632     -48.61652     
6.428         -5.142958     -51.87048     -1.832742     -139.8954     -1.832742     -139.8954     -5.142958     -51.87048     
6.487         -4.642472     -55.07254     -2.080274     -143.2027     -2.080274     -143.2027     -4.642472     -55.07254     
6.546         -4.191279     -58.21114     -2.343654     -146.4355     -2.343654     -146.4355     -4.191279     -58.21114     
6.605         -3.784908     -61.27651     -2.621642     -149.5857     -2.621642     -149.5857     -3.784908     -61.27651     
6.664         -3.419243     -64.26067     -2.91288      -152.6468     -2.91288      -152.6468     -3.419243     -64.26067     
6.723         -3.090481     -67.15738     -3.215949     -155.6135     -3.215949     -155.6135     -3.090481     -67.15738     
6.782         -2.795104     -69.96204     -3.5294       -158.4821     -3.5294       -158.4821     -2.795104     -69.96204     
6.841         -2.529865     -72.67155     -3.851798     -161.2503     -3.851798     -161.2503     -2.529865     -72.67155     
6.9           -2.291774     -75.28414     -4.181748     -163.917      -4.181748     -163.917      -2.291774     -75.28414     
6.959         -2.078091     -77.7993      -4.517923     -166.4822     -4.517923     -166.4822     -2.078091     -77.7993      
7.018         -1.886311     -80.21748     -4.859077     -168.9467     -4.859077     -168.9467     -1.886311     -80.21748     
7.077         -1.714158     -82.53997     -5.20406      -171.3123     -5.20406      -171.3123     -1.714158     -82.53997     
7.136         -1.559568     -84.76874     -5.551819     -173.5813     -5.551819     -173.5813     -1.559568     -84.76874     
7.195         -1.42068      -86.90629     -5.901407     -175.7564     -5.901407     -175.7564     -1.42068      -86.90629     
7.254         -1.295819     -88.95551     -6.251976     -177.8408     -6.251976     -177.8408     -1.295819     -88.95551     
7.313         -1.183483     -90.91959     -6.602774     -179.838      -6.602774     -179.838      -1.183483     -90.91959     
7.372         -1.082328     -92.80187     -6.953145     178.2487      -6.953145     178.2487      -1.082328     -92.80187     
7.431         -.991154      -94.60585     -7.302515     176.4155      -7.302515     176.4155      -.991154      -94.60585     
7.49          -.9088905     -96.335       -7.65039      174.6587      -7.65039      174.6587      -.9088905     -96.335       
7.549         -.8345857     -97.99284     -7.996347     172.9747      -7.996347     172.9747      -.8345857     -97.99284     
7.608         -.7673922     -99.58279     -8.340029     171.36        -8.340029     171.36        -.7673922     -99.58279     
7.667         -.7065572     -101.1082     -8.681131     169.8112      -8.681131     169.8112      -.7065572     -101.1082     
7.726         -.6514117     -102.5724     -9.019406     168.3247      -9.019406     168.3247      -.6514117     -102.5724     
7.785         -.6013614     -103.9784     -9.354648     166.8975      -9.354648     166.8975      -.6013614     -103.9784     
7.844         -.5558783     -105.3293     -9.686687     165.5265      -9.686687     165.5265      -.5558783     -105.3293     
7.903         -.5144932     -106.628      -10.01539     164.2086      -10.01539     164.2086      -.5144932     -106.628      
7.962         -.4767888     -107.8771     -10.34066     162.9412      -10.34066     162.9412      -.4767888     -107.8771     
8.021         -.4423944     -109.0792     -10.66242     161.7216      -10.66242     161.7216      -.4423944     -109.0792     
8.08          -.4109794     -110.2368     -10.98061     160.5473      -10.98061     160.5473      -.4109794     -110.2368     
8.139         -.3822498     -111.3522     -11.2952      159.4158      -11.2952      159.4158      -.3822498     -111.3522     
8.198         -.3559432     -112.4276     -11.60617     158.3251      -11.60617     158.3251      -.3559432     -112.4276     
8.257         -.3318256     -113.465      -11.91351     157.2731      -11.91351     157.2731      -.3318256     -113.465      
8.316         -.309688      -114.4663     -12.21723     156.2576      -12.21723     156.2576      -.309688      -114.4663     
8.375         -.2893434     -115.4335     -12.51735     155.2769      -12.51735     155.2769      -.2893434     -115.4335     
8.434         -.2706245     -116.3681     -12.81388     154.3292      -12.81388     154.3292      -.2706245     -116.3681     
8.493         -.2533814     -117.2719     -13.10687     153.413       -13.10687     153.413       -.2533814     -117.2719     
8.552         -.2374796     -118.1463     -13.39635     152.5266      -13.39635     152.5266      -.2374796     -118.1463     
8.611         -.2227982     -118.9927     -13.68236     151.6685      -13.68236     151.6685      -.2227982     -118.9927     
8.67          -.2092288     -119.8125     -13.96495     150.8375      -13.96495     150.8375      -.2092288     -119.8125     
8.729         -.1966736     -120.607      -14.24417     150.0323      -14.24417     150.0323      -.1966736     -120.607      
8.788         -.1850445     -121.3773     -14.52007     149.2515      -14.52007     149.2515      -.1850445     -121.3773     
8.847         -.1742619     -122.1246     -14.7927      148.4942      -14.7927      148.4942      -.1742619     -122.1246     
8.906         -.1642541     -122.8499     -15.06211     147.7592      -15.06211     147.7592      -.1642541     -122.8499     
8.965         -.1549562     -123.5542     -15.32837     147.0455      -15.32837     147.0455      -.1549562     -123.5542     
9.024         -.1463094     -124.2384     -15.59153     146.3522      -15.59153     146.3522      -.1463094     -124.2384     
9.083         -.1382605     -124.9035     -15.85165     145.6784      -15.85165     145.6784      -.1382605     -124.9035     
9.142         -.130761      -125.5502     -16.10878     145.0232      -16.10878     145.0232      -.130761      -125.5502     
9.201         -.1237671     -126.1794     -16.36297     144.3858      -16.36297     144.3858      -.1237671     -126.1794     
9.26          -.1172389     -126.7917     -16.61429     143.7654      -16.61429     143.7654      -.1172389     -126.7917     
9.319         -.1111401     -127.388      -16.86279     143.1615      -16.86279     143.1615      -.1111401     -127.388      
9.378         -.1054374     -127.9688     -17.10853     142.5732      -17.10853     142.5732      -.1054374     -127.9688     
9.437         -.1001007     -128.5347     -17.35156     142           -17.35156     142           -.1001007     -128.5347     
9.496         -9.510246E-02 -129.0864     -17.59193     141.4412      -17.59193     141.4412      -9.510246E-02 -129.0864     
9.555         -9.041734E-02 -129.6245     -17.82969     140.8963      -17.82969     140.8963      -9.041734E-02 -129.6245     
9.614         -8.602231E-02 -130.1494     -18.06491     140.3647      -18.06491     140.3647      -8.602231E-02 -130.1494     
9.673         -8.189622E-02 -130.6617     -18.29762     139.8459      -18.29762     139.8459      -8.189622E-02 -130.6617     
9.732         -7.801969E-02 -131.1619     -18.52788     139.3394      -18.52788     139.3394      -7.801969E-02 -131.1619     
9.791         -7.437492E-02 -131.6503     -18.75573     138.8448      -18.75573     138.8448      -7.437492E-02 -131.6503     
9.85          -7.094558E-02 -132.1275     -18.98123     138.3617      -18.98123     138.3617      -7.094558E-02 -132.1275     
9.909         -6.771664E-02 -132.5939     -19.20442     137.8895      -19.20442     137.8895      -6.771664E-02 -132.5939     
9.968         -6.467429E-02 -133.0498     -19.42534     137.428       -19.42534     137.428       -6.467429E-02 -133.0498     
10.027        -6.180577E-02 -133.4956     -19.64404     136.9767      -19.64404     136.9767      -6.180577E-02 -133.4956     
