! 2-port S-parameter file Version 2.0 by Elsie 19/04/2023 08:46:06
[Version] 2.0
# MHz S DB R 50
[Number of Ports] 2
[Two-Port Data Order] 21_12
[Number of Frequencies] 1001
! Fstart: 1  Fstop: 60
[Reference]  50 50
! Freq:       S11 mag:      S11 angle:    S21 mag:      S21 angle:    S12 mag:      S12 angle:    S22 mag:      S22 angle:
[Network data]
1             -5.913771E-02 170.0584      -61.35474     -104.4819     -61.35474     -104.4819     -5.913771E-02 170.0584      
1.059         -5.934544E-02 169.4522      -59.81929     -104.8459     -59.81929     -104.8459     -5.934544E-02 169.4522      
1.118         -5.956708E-02 168.8425      -58.36208     -105.2394     -58.36208     -105.2394     -5.956708E-02 168.8425      
1.177         -5.980304E-02 168.2291      -56.97478     -105.6588     -56.97478     -105.6588     -5.980304E-02 168.2291      
1.236         -6.005377E-02 167.6117      -55.65032     -106.1011     -55.65032     -106.1011     -6.005377E-02 167.6117      
1.295         -6.031976E-02 166.9902      -54.38258     -106.564      -54.38258     -106.564      -6.031976E-02 166.9902      
1.354         -6.060158E-02 166.3643      -53.16626     -107.0456     -53.16626     -107.0456     -6.060158E-02 166.3643      
1.413         -6.089985E-02 165.7337      -51.99675     -107.5443     -51.99675     -107.5443     -6.089985E-02 165.7337      
1.472         -6.121525E-02 165.0982      -50.86998     -108.0589     -50.86998     -108.0589     -6.121525E-02 165.0982      
1.531         -6.154855E-02 164.4575      -49.78237     -108.5885     -49.78237     -108.5885     -6.154855E-02 164.4575      
1.59          -6.190062E-02 163.8114      -48.73074     -109.1321     -48.73074     -109.1321     -6.190062E-02 163.8114      
1.649         -.0622724     163.1595      -47.71224     -109.6892     -47.71224     -109.6892     -.0622724     163.1595      
1.708         -6.266494E-02 162.5016      -46.72434     -110.2593     -46.72434     -110.2593     -6.266494E-02 162.5016      
1.767         -6.307945E-02 161.8375      -45.76475     -110.8419     -45.76475     -110.8419     -6.307945E-02 161.8375      
1.826         -6.351722E-02 161.1667      -44.8314      -111.4368     -44.8314      -111.4368     -6.351722E-02 161.1667      
1.885         -6.397974E-02 160.489       -43.92242     -112.0437     -43.92242     -112.0437     -6.397974E-02 160.489       
1.944         -6.446867E-02 159.8041      -43.03611     -112.6625     -43.03611     -112.6625     -6.446867E-02 159.8041      
2.003         -6.498582E-02 159.1115      -42.17091     -113.2932     -42.17091     -113.2932     -6.498582E-02 159.1115      
2.062         -6.553326E-02 158.411       -41.3254      -113.9358     -41.3254      -113.9358     -6.553326E-02 158.411       
2.121         -6.611329E-02 157.7022      -40.49828     -114.5903     -40.49828     -114.5903     -6.611329E-02 157.7022      
2.18          -6.672849E-02 156.9847      -39.68834     -115.2568     -39.68834     -115.2568     -6.672849E-02 156.9847      
2.239         -6.738173E-02 156.2581      -38.89447     -115.9354     -38.89447     -115.9354     -6.738173E-02 156.2581      
2.298         -6.807627E-02 155.5219      -38.11564     -116.6264     -38.11564     -116.6264     -6.807627E-02 155.5219      
2.357         -6.881572E-02 154.7758      -37.35091     -117.3299     -37.35091     -117.3299     -6.881572E-02 154.7758      
2.416         -6.960417E-02 154.0193      -36.59939     -118.0464     -36.59939     -118.0464     -6.960417E-02 154.0193      
2.475         -7.044619E-02 153.2519      -35.86024     -118.7759     -35.86024     -118.7759     -7.044619E-02 153.2519      
2.534         -7.134692E-02 152.4731      -35.1327      -119.519      -35.1327      -119.519      -7.134692E-02 152.4731      
2.593         -7.231215E-02 151.6824      -34.41605     -120.2759     -34.41605     -120.2759     -7.231215E-02 151.6824      
2.652         -7.334838E-02 150.8792      -33.7096      -121.0472     -33.7096      -121.0472     -7.334838E-02 150.8792      
2.711         -7.446297E-02 150.063       -33.01272     -121.8333     -33.01272     -121.8333     -7.446297E-02 150.063       
2.77          -7.566416E-02 149.2332      -32.32481     -122.6346     -32.32481     -122.6346     -7.566416E-02 149.2332      
2.829         -.0769613     148.3891      -31.6453      -123.4518     -31.6453      -123.4518     -.0769613     148.3891      
2.888         -7.836491E-02 147.53        -30.97366     -124.2854     -30.97366     -124.2854     -7.836491E-02 147.53        
2.947         -7.988688E-02 146.6553      -30.30937     -125.136      -30.30937     -125.136      -7.988688E-02 146.6553      
3.006         -8.154066E-02 145.7642      -29.65196     -126.0044     -29.65196     -126.0044     -8.154066E-02 145.7642      
3.065         -8.334146E-02 144.8559      -29.00097     -126.8912     -29.00097     -126.8912     -8.334146E-02 144.8559      
3.124         -8.530653E-02 143.9295      -28.35597     -127.7972     -28.35597     -127.7972     -8.530653E-02 143.9295      
3.183         -8.745536E-02 142.9843      -27.71654     -128.7233     -27.71654     -128.7233     -8.745536E-02 142.9843      
3.242         -8.981012E-02 142.0191      -27.08228     -129.6703     -27.08228     -129.6703     -8.981012E-02 142.0191      
3.301         -9.239595E-02 141.0332      -26.45281     -130.6392     -26.45281     -130.6392     -9.239595E-02 141.0332      
3.36          -9.524139E-02 140.0253      -25.82779     -131.631      -25.82779     -131.631      -9.524139E-02 140.0253      
3.419         -9.837894E-02 138.9944      -25.20686     -132.6468     -25.20686     -132.6468     -9.837894E-02 138.9944      
3.478         -.1018456     137.9393      -24.58969     -133.6878     -24.58969     -133.6878     -.1018456     137.9393      
3.537         -.1056834     136.8586      -23.97597     -134.7551     -23.97597     -134.7551     -.1056834     136.8586      
3.596         -.1099404     135.7511      -23.36541     -135.8502     -23.36541     -135.8502     -.1099404     135.7511      
3.655         -.1146713     134.6154      -22.7577      -136.9744     -22.7577      -136.9744     -.1146713     134.6154      
3.714         -.1199389     133.4497      -22.15259     -138.1293     -22.15259     -138.1293     -.1199389     133.4497      
3.773         -.1258145     132.2526      -21.54982     -139.3164     -21.54982     -139.3164     -.1258145     132.2526      
3.832         -.1323801     131.0222      -20.94913     -140.5376     -20.94913     -140.5376     -.1323801     131.0222      
3.891         -.1397295     129.7567      -20.35031     -141.7946     -20.35031     -141.7946     -.1397295     129.7567      
3.95          -.1479701     128.4541      -19.75313     -143.0895     -19.75313     -143.0895     -.1479701     128.4541      
4.009         -.1572253     127.1121      -19.15741     -144.4245     -19.15741     -144.4245     -.1572253     127.1121      
4.068         -.1676366     125.7286      -18.56297     -145.8018     -18.56297     -145.8018     -.1676366     125.7286      
4.127         -.1793668     124.3009      -17.96965     -147.2239     -17.96965     -147.2239     -.1793668     124.3009      
4.186         -.192603      122.8266      -17.37731     -148.6934     -17.37731     -148.6934     -.192603      122.8266      
4.245         -.2075605     121.3027      -16.78585     -150.2131     -16.78585     -150.2131     -.2075605     121.3027      
4.304         -.2244871     119.7262      -16.19518     -151.786      -16.19518     -151.786      -.2244871     119.7262      
4.363         -.2436684     118.094       -15.60527     -153.4155     -15.60527     -153.4155     -.2436684     118.094       
4.422         -.2654335     116.4026      -15.01609     -155.1048     -15.01609     -155.1048     -.2654335     116.4026      
4.481         -.2901614     114.6484      -14.42768     -156.8577     -14.42768     -156.8577     -.2901614     114.6484      
4.54          -.3182892     112.8274      -13.84012     -158.6779     -13.84012     -158.6779     -.3182892     112.8274      
4.599         -.3503203     110.9356      -13.25355     -160.5697     -13.25355     -160.5697     -.3503203     110.9356      
4.658         -.3868347     108.9688      -12.66816     -162.5373     -12.66816     -162.5373     -.3868347     108.9688      
4.717         -.4284996     106.9223      -12.08424     -164.5852     -12.08424     -164.5852     -.4284996     106.9223      
4.776         -.4760818     104.7916      -11.50214     -166.7182     -11.50214     -166.7182     -.4760818     104.7916      
4.835         -.5304614     102.5718      -10.92231     -168.941      -10.92231     -168.941      -.5304614     102.5718      
4.894         -.5926459     100.258       -10.34532     -171.2585     -10.34532     -171.2585     -.5926459     100.258       
4.953         -.6637862     97.84538      -9.771851     -173.6758     -9.771851     -173.6758     -.6637862     97.84538      
5.012         -.7451915     95.32898      -9.202714     -176.1977     -9.202714     -176.1977     -.7451915     95.32898      
5.071         -.8383459     92.70419      -8.638871     -178.8288     -8.638871     -178.8288     -.8383459     92.70419      
5.13          -.9449223     89.96671      -8.081441     178.4264      -8.081441     178.4264      -.9449223     89.96671      
5.189         -1.066795     87.11279      -7.531703     175.5642      -7.531703     175.5642      -1.066795     87.11279      
5.248         -1.20605      84.13938      -6.991108     172.5816      -6.991108     172.5816      -1.20605      84.13938      
5.307         -1.364984     81.04448      -6.461273     169.4763      -6.461273     169.4763      -1.364984     81.04448      
5.366         -1.546107     77.82732      -5.943969     166.2476      -5.943969     166.2476      -1.546107     77.82732      
5.425         -1.752124     74.48869      -5.441105     162.8962      -5.441105     162.8962      -1.752124     74.48869      
5.484         -1.985914     71.03123      -4.954689     159.4247      -4.954689     159.4247      -1.985914     71.03123      
5.543         -2.250492     67.45974      -4.48679      155.8377      -4.48679      155.8377      -2.250492     67.45974      
5.602         -2.548966     63.78123      -4.039469     152.1421      -4.039469     152.1421      -2.548966     63.78123      
5.661         -2.884477     60.00524      -3.614716     148.3473      -3.614716     148.3473      -2.884477     60.00524      
5.72          -3.260135     56.14372      -3.214365     144.4651      -3.214365     144.4651      -3.260135     56.14372      
5.779         -3.678962     52.21091      -2.840008     140.5096      -2.840008     140.5096      -3.678962     52.21091      
5.838         -4.143834     48.22312      -2.492921     136.4968      -2.492921     136.4968      -4.143834     48.22312      
5.897         -4.657446     44.19822      -2.173987     132.4442      -2.173987     132.4442      -4.657446     44.19822      
5.956         -5.222303     40.15511      -1.88365      128.3706      -1.88365      128.3706      -5.222303     40.15511      
6.015         -5.840741     36.11308      -1.621886     124.2947      -1.621886     124.2947      -5.840741     36.11308      
6.074         -6.515001     32.09115      -1.388206     120.2351      -1.388206     120.2351      -6.515001     32.09115      
6.133         -7.247339     28.10746      -1.181682     116.2093      -1.181682     116.2093      -7.247339     28.10746      
6.192         -8.040193     24.17872      -1.001001     112.2332      -1.001001     112.2332      -8.040193     24.17872      
6.251         -8.896399     20.31988      -.8445398     108.3208      -.8445398     108.3208      -8.896399     20.31988      
6.31          -9.819487     16.54386      -.7104375     104.4837      -.7104375     104.4837      -9.819487     16.54386      
6.369         -10.81403     12.8616       -.596687      100.7313      -.596687      100.7313      -10.81403     12.8616       
6.428         -11.88612     9.282202      -.501211      97.07036      -.501211      97.07036      -11.88612     9.282202      
6.487         -13.04405     5.813362      -.4219339     93.50547      -.4219339     93.50547      -13.04405     5.813362      
6.546         -14.29919     2.462005      -.356839      90.03919      -.356839      90.03919      -14.29919     2.462005      
6.605         -15.66741     -.7646819     -.3040142     86.67228      -.3040142     86.67228      -15.66741     -.7646819     
6.664         -17.17129     -3.857612     -.2616828     83.40397      -.2616828     83.40397      -17.17129     -3.857612     
6.723         -18.8439      -6.802905     -.2282229     80.23231      -.2282229     80.23231      -18.8439      -6.802905     
6.782         -20.7357      -9.576185     -.202177      77.15437      -.202177      77.15437      -20.7357      -9.576185     
6.841         -22.92834     -12.12969     -.1822531     74.16655      -.1822531     74.16655      -22.92834     -12.12969     
6.9           -25.56585     -14.35805     -.1673201     71.26475      -.1673201     71.26475      -25.56585     -14.35805     
6.959         -28.93846     -15.98335     -.1563988     68.44455      -.1563988     68.44455      -28.93846     -15.98335     
7.018         -33.78107     -15.99461     -.1486509     65.70139      -.1486509     65.70139      -33.78107     -15.99461     
7.077         -43.15385     -6.110282     -.1433661     63.03067      -.1433661     63.03067      -43.15385     -6.110282     
7.136         -44.27666     131.0073      -.1399486     60.42781      -.1399486     60.42781      -44.27666     131.0073      
7.195         -35.5423      142.3218      -.1379044     57.88838      -.1379044     57.88838      -35.5423      142.3218      
7.254         -31.63227     142.6954      -.1368282     55.4081       -.1368282     55.4081       -31.63227     142.6954      
7.313         -29.24315     141.5054      -.1363921     52.98288      -.1363921     52.98288      -29.24315     141.5054      
7.372         -27.60667     139.8287      -.136335      50.60887      -.136335      50.60887      -27.60667     139.8287      
7.431         -26.42324     137.9566      -.1364524     48.28246      -.1364524     48.28246      -26.42324     137.9566      
7.49          -25.54512     135.9991      -.1365883     46.00025      -.1365883     46.00025      -25.54512     135.9991      
7.549         -24.88883     134.006       -.1366272     43.7591       -.1366272     43.7591       -24.88883     134.006       
7.608         -24.40282     132.0024      -.1364875     41.55611      -.1364875     41.55611      -24.40282     132.0024      
7.667         -24.05328     130.0021      -.1361159     39.38859      -.1361159     39.38859      -24.05328     130.0021      
7.726         -23.81708     128.0128      -.1354818     37.25407      -.1354818     37.25407      -23.81708     128.0128      
7.785         -23.67791     126.0393      -.1345734     35.1503       -.1345734     35.1503       -23.67791     126.0393      
7.844         -23.62413     124.0843      -.1333936     33.0752       -.1333936     33.0752       -23.62413     124.0843      
7.903         -23.64739     122.1495      -.1319566     31.02689      -.1319566     31.02689      -23.64739     122.1495      
7.962         -23.74179     120.236       -.1302856     29.00366      -.1302856     29.00366      -23.74179     120.236       
8.021         -23.90336     118.3447      -.12841       27.00393      -.12841       27.00393      -23.90336     118.3447      
8.08          -24.12975     116.4763      -.1263636     25.02629      -.1263636     25.02629      -24.12975     116.4763      
8.139         -24.41996     114.6316      -.1241827     23.06945      -.1241827     23.06945      -24.41996     114.6316      
8.198         -24.77435     112.8117      -.1219048     21.13225      -.1219048     21.13225      -24.77435     112.8117      
8.257         -25.19457     111.0177      -.1195674     19.21362      -.1195674     19.21362      -25.19457     111.0177      
8.316         -25.68371     109.2518      -.117207      17.31261      -.117207      17.31261      -25.68371     109.2518      
8.375         -26.24647     107.5161      -.1148583     15.42835      -.1148583     15.42835      -26.24647     107.5161      
8.434         -26.88957     105.8146      -.1125536     13.56004      -.1125536     13.56004      -26.88957     105.8146      
8.493         -27.6223      104.1524      -.1103221     11.70697      -.1103221     11.70697      -27.6223      104.1524      
8.552         -28.4574      102.5372      -.1081899     9.868476      -.1081899     9.868476      -28.4574      102.5372      
8.611         -29.41255     100.9803      -.1061795     8.043955      -.1061795     8.043955      -29.41255     100.9803      
8.67          -30.51271     99.50011      -.1043095     6.232849      -.1043095     6.232849      -30.51271     99.50011      
8.729         -31.79436     98.12589      -.102595      4.434642      -.102595      4.434642      -31.79436     98.12589      
8.788         -33.3132      96.91         -.101047      2.648851      -.101047      2.648851      -33.3132      96.91         
8.847         -35.1601      95.95266      -9.967283E-02 .8750209      -9.967283E-02 .8750209      -35.1601      95.95266      
8.906         -37.49765     95.47515      -9.847632E-02 -.8872814     -9.847632E-02 -.8872814     -37.49765     95.47515      
8.965         -40.66131     96.07578      -9.745769E-02 -2.638471     -9.745769E-02 -2.638471     -40.66131     96.07578      
9.024         -45.53041     100.1021      -9.661394E-02 -4.378949     -9.661394E-02 -4.378949     -45.53041     100.1021      
9.083         -55.39972     130.5505      -9.593906E-02 -6.109109     -9.593906E-02 -6.109109     -55.39972     130.5505      
9.142         -50.68962     -120.8257     -9.542425E-02 -7.82934      -9.542425E-02 -7.82934      -50.68962     -120.8257     
9.201         -43.73584     -108.7499     -9.505831E-02 -9.540029     -9.505831E-02 -9.540029     -43.73584     -108.7499     
9.26          -39.95346     -106.579      -9.482787E-02 -11.24156     -9.482787E-02 -11.24156     -39.95346     -106.579      
9.319         -37.41655     -106.4425     -9.471779E-02 -12.93433     -9.471779E-02 -12.93433     -37.41655     -106.4425     
9.378         -35.54401     -107.0454     -9.471147E-02 -14.61874     -9.471147E-02 -14.61874     -35.54401     -107.0454     
9.437         -34.0887      -107.9942     -.0947912     -16.29519     -.0947912     -16.29519     -34.0887      -107.9942     
9.496         -32.92333     -109.1287     -9.493858E-02 -17.96409     -9.493858E-02 -17.96409     -32.92333     -109.1287     
9.555         -31.97416     -110.3718     -9.513481E-02 -19.62589     -9.513481E-02 -19.62589     -31.97416     -110.3718     
9.614         -31.19506     -111.681      -9.536114E-02 -21.28102     -9.536114E-02 -21.28102     -31.19506     -111.681      
9.673         -30.5556      -113.0315     -9.559921E-02 -22.92994     -9.559921E-02 -22.92994     -30.5556      -113.0315     
9.732         -30.03507     -114.407      -9.583139E-02 -24.57312     -9.583139E-02 -24.57312     -30.03507     -114.407      
9.791         -29.6192      -115.7964     -.0960412     -26.21105     -.0960412     -26.21105     -29.6192      -115.7964     
9.85          -29.29819     -117.1912     -9.621366E-02 -27.84422     -9.621366E-02 -27.84422     -29.29819     -117.1912     
9.909         -29.06566     -118.5849     -9.633566E-02 -29.47317     -9.633566E-02 -29.47317     -29.06566     -118.5849     
9.968         -28.91794     -119.9713     -9.639633E-02 -31.09842     -9.639633E-02 -31.09842     -28.91794     -119.9713     
10.027        -28.85374     -121.3444     -9.638736E-02 -32.72053     -9.638736E-02 -32.72053     -28.85374     -121.3444     
